
T1D6C 000:027 SEGGER J-Link V6.00d Log File (0000ms, 0017ms total)
T1D6C 000:027 DLL Compiled: Jul 29 2016 19:07:54 (0000ms, 0017ms total)
T1D6C 000:027 Logging started @ 2017-05-06 22:47 (0000ms, 0017ms total)
T1D6C 000:027 JLINK_SetWarnOutHandler(...) (0000ms, 0017ms total)
T1D6C 000:027 JLINK_OpenEx(...)
Firmware: J-Link V9 compiled Jul 29 2016 18:50:09
Hardware: V9.20
S/N: 269200000
Feature(s): GDB, RDI, FlashBP, FlashDL, JFlash, RDDI  returns O.K. (0016ms, 0033ms total)
T1D6C 000:043 JLINK_SetErrorOutHandler(...) (0000ms, 0033ms total)
T1D6C 000:043 JLINK_ExecCommand("ProjectFile = "C:\GitHub\gift\JLinkSettings.ini"", ...).   returns 0x00 (0104ms, 0137ms total)
T1D6C 000:152 JLINK_ExecCommand("Device = STM32F103VE", ...). Device "STM32F103VE" selected.  returns 0x00 (0003ms, 0140ms total)
T1D6C 000:155 JLINK_ExecCommand("DisableConnectionTimeout", ...).   returns 0x01 (0000ms, 0140ms total)
T1D6C 000:155 JLINK_GetHardwareVersion()  returns 0x16760 (0000ms, 0140ms total)
T1D6C 000:155 JLINK_GetDLLVersion()  returns 60004 (0000ms, 0140ms total)
T1D6C 000:155 JLINK_GetFirmwareString(...) (0000ms, 0140ms total)
T1D6C 000:161 JLINK_GetDLLVersion()  returns 60004 (0000ms, 0140ms total)
T1D6C 000:161 JLINK_GetCompileDateTime() (0000ms, 0140ms total)
T1D6C 000:163 JLINK_GetFirmwareString(...) (0000ms, 0140ms total)
T1D6C 000:168 JLINK_GetHardwareVersion()  returns 0x16760 (0000ms, 0140ms total)
T1D6C 000:176 JLINK_TIF_Select(JLINKARM_TIF_JTAG)  returns 0x00 (0001ms, 0141ms total)
T1D6C 000:177 JLINK_SetSpeed(5000) (0001ms, 0142ms total)
T1D6C 000:178 JLINK_GetIdData(...) >0x2F8 JTAG>TotalIRLen = 9, IRPrint = 0x0011 >0x30 JTAG> >0x410 JTAG> >0x40 JTAG> >0x40 JTAG> >0x40 JTAG> >0x30 JTAG> >0x40 JTAG> >0x40 JTAG> >0x40 JTAG> >0x40 JTAG> >0x40 JTAG> >0x40 JTAG> >0x40 JTAG> >0x40 JTAG> >0x40 JTAG> >0x40 JTAG> >0x40 JTAG> >0x40 JTAG> >0x40 JTAG> >0x40 JTAG> >0x40 JTAG> >0x40 JTAG> >0x40 JTAG> >0x40 JTAG> >0x40 JTAG> >0x40 JTAG> >0x2F8 JTAG>TotalIRLen = 9, IRPrint = 0x0011 >0x30 JTAG> >0x410 JTAG> >0x70 JTAG> >0x50 JTAG> >0x40 JTAG>
 >0x50 JTAG>AP-IDR: 0x14770011, Type: AHB-AP >0x80 JTAG> >0x40 JTAG> >0x30 JTAG> >0x40 JTAG> >0x40 JTAG> >0x30 JTAG> >0x40 JTAG> >0x50 JTAG>Found Cortex-M3 r1p1, Little endian. -- CPU_ReadMem(4 bytes @ 0xE000EDF0) -- CPU_ReadMem(4 bytes @ 0xE0002000)FPUnit: 6 code (BP) slots and 2 literal slots -- CPU_ReadMem(4 bytes @ 0xE000EDFC) -- CPU_ReadMem(4 bytes @ 0xE0001000) -- CPU_WriteMem(4 bytes @ 0xE0001000) -- CPU_ReadMem(4 bytes @ 0xE000ED88) -- CPU_WriteMem(4 bytes @ 0xE000ED88)
 -- CPU_ReadMem(4 bytes @ 0xE000ED88) -- CPU_WriteMem(4 bytes @ 0xE000ED88)CoreSight components:ROMTbl 0 @ E00FF000 -- CPU_ReadMem(16 bytes @ 0xE00FF000) -- CPU_ReadMem(16 bytes @ 0xE000EFF0) -- CPU_ReadMem(16 bytes @ 0xE000EFE0)ROMTbl 0 [0]: FFF0F000, CID: B105E00D, PID: 001BB000 SCS -- CPU_ReadMem(16 bytes @ 0xE0001FF0) -- CPU_ReadMem(16 bytes @ 0xE0001FE0)ROMTbl 0 [1]: FFF02000, CID: B105E00D, PID: 001BB002 DWT -- CPU_ReadMem(16 bytes @ 0xE0002FF0) -- CPU_ReadMem(16 bytes @ 0xE0002FE0)
ROMTbl 0 [2]: FFF03000, CID: B105E00D, PID: 000BB003 FPB -- CPU_ReadMem(16 bytes @ 0xE0000FF0) -- CPU_ReadMem(16 bytes @ 0xE0000FE0)ROMTbl 0 [3]: FFF01000, CID: B105E00D, PID: 001BB001 ITM -- CPU_ReadMem(16 bytes @ 0xE00FF010) -- CPU_ReadMem(16 bytes @ 0xE0040FF0) -- CPU_ReadMem(16 bytes @ 0xE0040FE0)ROMTbl 0 [4]: FFF41000, CID: B105900D, PID: 001BB923 TPIU-Lite -- CPU_ReadMem(16 bytes @ 0xE0041FF0) -- CPU_ReadMem(16 bytes @ 0xE0041FE0)ROMTbl 0 [5]: FFF42000, CID: B105900D, PID: 101BB924 ETM-M3 ScanLen=9
 NumDevices=2 aId[0]=0x3BA00477 aIrRead[0]=0 aScanLen[0]=0 aScanRead[0]=0 (0052ms, 0194ms total)
T1D6C 000:231 JLINK_JTAG_GetDeviceID(DeviceIndex = 0)  returns 0x3BA00477 (0000ms, 0195ms total)
T1D6C 000:231 JLINK_JTAG_GetDeviceInfo(DeviceIndex = 0)  returns 0x00 (0000ms, 0195ms total)
T1D6C 000:231 JLINK_JTAG_GetDeviceID(DeviceIndex = 1)  returns 0x6414041 (0000ms, 0195ms total)
T1D6C 000:231 JLINK_JTAG_GetDeviceInfo(DeviceIndex = 1)  returns 0x00 (0000ms, 0195ms total)
T1D6C 000:231 JLINK_GetDLLVersion()  returns 60004 (0000ms, 0195ms total)
T1D6C 000:231 JLINK_CORE_GetFound()  returns 0x30000FF (0000ms, 0195ms total)
T1D6C 000:231 JLINK_GetDebugInfo(0x100) -- Value=0xE00FF003  returns 0x00 (0000ms, 0195ms total)
T1D6C 000:232 JLINK_GetDebugInfo(0x100) -- Value=0xE00FF003  returns 0x00 (0000ms, 0195ms total)
T1D6C 000:232 JLINK_GetDebugInfo(0x101) -- Value=0xE0041000  returns 0x00 (0000ms, 0195ms total)
T1D6C 000:232 JLINK_GetDebugInfo(0x102) -- Value=0x00000000  returns 0x00 (0000ms, 0195ms total)
T1D6C 000:232 JLINK_GetDebugInfo(0x103) -- Value=0xE0040000  returns 0x00 (0000ms, 0195ms total)
T1D6C 000:232 JLINK_GetDebugInfo(0x104) -- Value=0xE0000000  returns 0x00 (0000ms, 0195ms total)
T1D6C 000:232 JLINK_GetDebugInfo(0x105) -- Value=0xE0001000  returns 0x00 (0000ms, 0195ms total)
T1D6C 000:232 JLINK_GetDebugInfo(0x106) -- Value=0xE0002000  returns 0x00 (0000ms, 0195ms total)
T1D6C 000:232 JLINK_GetDebugInfo(0x107) -- Value=0xE000E000  returns 0x00 (0000ms, 0195ms total)
T1D6C 000:232 JLINK_GetDebugInfo(0x10C) -- Value=0xE000EDF0  returns 0x00 (0000ms, 0195ms total)
T1D6C 000:232 JLINK_ReadMemU32(0xE000ED00, 0x0001 Items, ...) -- CPU is running -- CPU_ReadMem(4 bytes @ 0xE000ED00) - Data: 31 C2 1F 41  returns 0x01 (0002ms, 0197ms total)
T1D6C 000:234 JLINK_SetResetType(JLINKARM_RESET_TYPE_NORMAL)  returns JLINKARM_RESET_TYPE_NORMAL (0000ms, 0197ms total)
T1D6C 000:234 JLINK_Reset() -- CPU is running -- CPU_WriteMem(4 bytes @ 0xE000EDF0) -- CPU is running -- CPU_WriteMem(4 bytes @ 0xE000EDFC) -- CPU is running -- CPU_WriteMem(4 bytes @ 0xE000ED0C) -- CPU is running -- CPU_ReadMem(4 bytes @ 0xE000EDF0) -- CPU is running -- CPU_ReadMem(4 bytes @ 0xE000EDF0) -- CPU is running -- CPU_WriteMem(4 bytes @ 0xE000EDF0) -- CPU is running -- CPU_WriteMem(4 bytes @ 0xE000EDFC) -- CPU is running -- CPU_ReadMem(4 bytes @ 0xE000EDF0) >0x80 JTAG> >0x40 JTAG> >0x30 JTAG>
 >0x40 JTAG> >0x50 JTAG> >0x40 JTAG> -- CPU_WriteMem(4 bytes @ 0xE000EDFC) -- CPU_WriteMem(4 bytes @ 0xE0001028) -- CPU_WriteMem(4 bytes @ 0xE0001038) -- CPU_WriteMem(4 bytes @ 0xE0001048) -- CPU_WriteMem(4 bytes @ 0xE0001058) -- CPU_WriteMem(4 bytes @ 0xE0002000) -- CPU_ReadMem(4 bytes @ 0xE000EDFC) -- CPU_ReadMem(4 bytes @ 0xE0001000) (0020ms, 0217ms total)
T1D6C 000:254 JLINK_Halt()  returns 0x00 (0000ms, 0217ms total)
T1D6C 000:254 JLINK_IsHalted()  returns TRUE (0000ms, 0217ms total)
T1D6C 000:254 JLINK_ReadMemU32(0xE000EDF0, 0x0001 Items, ...) -- CPU_ReadMem(4 bytes @ 0xE000EDF0) - Data: 03 00 03 00  returns 0x01 (0001ms, 0218ms total)
T1D6C 000:255 JLINK_WriteU32(0xE000EDF0, 0xA05F0003) -- CPU_WriteMem(4 bytes @ 0xE000EDF0)  returns 0x00 (0000ms, 0218ms total)
T1D6C 000:255 JLINK_WriteU32(0xE000EDFC, 0x01000000) -- CPU_WriteMem(4 bytes @ 0xE000EDFC)  returns 0x00 (0000ms, 0218ms total)
T1D6C 000:266 JLINK_GetHWStatus(...)  returns 0x00 (0000ms, 0218ms total)
T1D6C 000:271 JLINK_GetNumBPUnits(Type = 0xFFFFFF00)  returns 0x06 (0000ms, 0218ms total)
T1D6C 000:271 JLINK_GetNumBPUnits(Type = 0xF0)  returns 0x2000 (0000ms, 0218ms total)
T1D6C 000:271 JLINK_GetNumWPUnits()  returns 0x04 (0000ms, 0218ms total)
T1D6C 000:280 JLINK_GetSpeed()  returns 0x1388 (0000ms, 0218ms total)
T1D6C 000:283 JLINK_ReadMemU32(0xE000E004, 0x0001 Items, ...) -- CPU_ReadMem(4 bytes @ 0xE000E004) - Data: 01 00 00 00  returns 0x01 (0001ms, 0219ms total)
T1D6C 000:284 JLINK_ReadMemU32(0xE000E004, 0x0001 Items, ...) -- CPU_ReadMem(4 bytes @ 0xE000E004) - Data: 01 00 00 00  returns 0x01 (0000ms, 0219ms total)
T1D6C 000:284 JLINK_WriteMem(0xE0001000, 0x001C Bytes, ...) - Data: 01 00 00 00 00 00 00 00 00 00 00 00 00 00 00 00 ... -- CPU_WriteMem(28 bytes @ 0xE0001000)  returns 0x1C (0001ms, 0220ms total)
T1D6C 000:285 JLINK_ReadMem (0xE0001000, 0x001C Bytes, ...) -- CPU_ReadMem(28 bytes @ 0xE0001000) - Data: 01 00 00 40 00 00 00 00 00 00 00 00 00 00 00 00 ...  returns 0x00 (0000ms, 0220ms total)
T1D6C 000:285 JLINK_Halt()  returns 0x00 (0000ms, 0220ms total)
T1D6C 000:285 JLINK_IsHalted()  returns TRUE (0000ms, 0220ms total)
T1D6C 000:287 JLINK_WriteMem(0x20000000, 0x0164 Bytes, ...) - Data: 00 BE 0A E0 0D 78 2D 06 68 40 08 24 40 00 00 D3 ... -- CPU_WriteMem(356 bytes @ 0x20000000)  returns 0x164 (0003ms, 0223ms total)
T1D6C 000:290 JLINK_WriteReg(R0, 0x08000000)  returns 0x00 (0000ms, 0223ms total)
T1D6C 000:290 JLINK_WriteReg(R1, 0x00B71B00)  returns 0x00 (0000ms, 0223ms total)
T1D6C 000:290 JLINK_WriteReg(R2, 0x00000001)  returns 0x00 (0000ms, 0223ms total)
T1D6C 000:290 JLINK_WriteReg(R3, 0x00000000)  returns 0x00 (0000ms, 0223ms total)
T1D6C 000:290 JLINK_WriteReg(R4, 0x00000000)  returns 0x00 (0000ms, 0223ms total)
T1D6C 000:290 JLINK_WriteReg(R5, 0x00000000)  returns 0x00 (0000ms, 0223ms total)
T1D6C 000:290 JLINK_WriteReg(R6, 0x00000000)  returns 0x00 (0000ms, 0223ms total)
T1D6C 000:290 JLINK_WriteReg(R7, 0x00000000)  returns 0x00 (0000ms, 0223ms total)
T1D6C 000:290 JLINK_WriteReg(R8, 0x00000000)  returns 0x00 (0000ms, 0223ms total)
T1D6C 000:290 JLINK_WriteReg(R9, 0x20000160)  returns 0x00 (0000ms, 0223ms total)
T1D6C 000:290 JLINK_WriteReg(R10, 0x00000000)  returns 0x00 (0000ms, 0223ms total)
T1D6C 000:290 JLINK_WriteReg(R11, 0x00000000)  returns 0x00 (0000ms, 0223ms total)
T1D6C 000:290 JLINK_WriteReg(R12, 0x00000000)  returns 0x00 (0000ms, 0223ms total)
T1D6C 000:290 JLINK_WriteReg(R13 (SP), 0x20000800)  returns 0x00 (0000ms, 0223ms total)
T1D6C 000:290 JLINK_WriteReg(R14, 0x20000001)  returns 0x00 (0000ms, 0223ms total)
T1D6C 000:290 JLINK_WriteReg(R15 (PC), 0x20000038)  returns 0x00 (0000ms, 0223ms total)
T1D6C 000:290 JLINK_WriteReg(XPSR, 0x01000000)  returns 0x00 (0000ms, 0223ms total)
T1D6C 000:290 JLINK_WriteReg(MSP, 0x20000800)  returns 0x00 (0000ms, 0223ms total)
T1D6C 000:290 JLINK_WriteReg(PSP, 0x20000800)  returns 0x00 (0000ms, 0223ms total)
T1D6C 000:290 JLINK_WriteReg(CFBP, 0x00000000)  returns 0x00 (0000ms, 0223ms total)
T1D6C 000:290 JLINK_SetBPEx(Addr = 0x20000000, Type = 0xFFFFFFF2) -- CPU_ReadMem(2 bytes @ 0x20000000)  returns 0x00000001 (0001ms, 0224ms total)
T1D6C 000:291 JLINK_Go() -- CPU_WriteMem(2 bytes @ 0x20000000) -- CPU_ReadMem(4 bytes @ 0xE0001000) -- CPU_WriteMem(4 bytes @ 0xE0002008) -- CPU_WriteMem(4 bytes @ 0xE000200C) -- CPU_WriteMem(4 bytes @ 0xE0002010) -- CPU_WriteMem(4 bytes @ 0xE0002014) -- CPU_WriteMem(4 bytes @ 0xE0002018) -- CPU_WriteMem(4 bytes @ 0xE000201C) -- CPU_WriteMem(4 bytes @ 0xE0001004) (0003ms, 0227ms total)
T1D6C 000:294 JLINK_IsHalted() -- CPU_ReadMem(2 bytes @ 0x20000000)  returns TRUE (0002ms, 0229ms total)
T1D6C 000:296 JLINK_ReadReg(R15 (PC))  returns 0x20000000 (0000ms, 0227ms total)
T1D6C 000:296 JLINK_ClrBPEx(BPHandle = 0x00000001)  returns 0x00 (0000ms, 0227ms total)
T1D6C 000:296 JLINK_ReadReg(R0)  returns 0x00000000 (0000ms, 0227ms total)
T1D6C 000:296 JLINK_WriteReg(R0, 0x08000000)  returns 0x00 (0000ms, 0227ms total)
T1D6C 000:296 JLINK_WriteReg(R1, 0x00B71B00)  returns 0x00 (0000ms, 0227ms total)
T1D6C 000:296 JLINK_WriteReg(R2, 0x00000001)  returns 0x00 (0000ms, 0227ms total)
T1D6C 000:296 JLINK_WriteReg(R3, 0x00000000)  returns 0x00 (0000ms, 0227ms total)
T1D6C 000:296 JLINK_WriteReg(R4, 0x00000000)  returns 0x00 (0000ms, 0227ms total)
T1D6C 000:296 JLINK_WriteReg(R5, 0x00000000)  returns 0x00 (0000ms, 0227ms total)
T1D6C 000:296 JLINK_WriteReg(R6, 0x00000000)  returns 0x00 (0000ms, 0227ms total)
T1D6C 000:296 JLINK_WriteReg(R7, 0x00000000)  returns 0x00 (0000ms, 0227ms total)
T1D6C 000:296 JLINK_WriteReg(R8, 0x00000000)  returns 0x00 (0000ms, 0227ms total)
T1D6C 000:296 JLINK_WriteReg(R9, 0x20000160)  returns 0x00 (0000ms, 0227ms total)
T1D6C 000:296 JLINK_WriteReg(R10, 0x00000000)  returns 0x00 (0000ms, 0227ms total)
T1D6C 000:296 JLINK_WriteReg(R11, 0x00000000)  returns 0x00 (0000ms, 0227ms total)
T1D6C 000:296 JLINK_WriteReg(R12, 0x00000000)  returns 0x00 (0000ms, 0227ms total)
T1D6C 000:296 JLINK_WriteReg(R13 (SP), 0x20000800)  returns 0x00 (0000ms, 0227ms total)
T1D6C 000:296 JLINK_WriteReg(R14, 0x20000001)  returns 0x00 (0000ms, 0227ms total)
T1D6C 000:296 JLINK_WriteReg(R15 (PC), 0x2000007C)  returns 0x00 (0000ms, 0227ms total)
T1D6C 000:296 JLINK_WriteReg(XPSR, 0x01000000)  returns 0x00 (0000ms, 0227ms total)
T1D6C 000:296 JLINK_WriteReg(MSP, 0x20000800)  returns 0x00 (0000ms, 0227ms total)
T1D6C 000:296 JLINK_WriteReg(PSP, 0x20000800)  returns 0x00 (0000ms, 0227ms total)
T1D6C 000:296 JLINK_WriteReg(CFBP, 0x00000000)  returns 0x00 (0000ms, 0227ms total)
T1D6C 000:296 JLINK_SetBPEx(Addr = 0x20000000, Type = 0xFFFFFFF2)  returns 0x00000002 (0000ms, 0227ms total)
T1D6C 000:296 JLINK_Go() -- CPU_ReadMem(4 bytes @ 0xE0001000) (0001ms, 0228ms total)
T1D6C 000:297 JLINK_IsHalted()  returns FALSE (0001ms, 0229ms total)
T1D6C 000:343 JLINK_IsHalted() -- CPU_ReadMem(2 bytes @ 0x20000000)  returns TRUE (0002ms, 0230ms total)
T1D6C 000:345 JLINK_ReadReg(R15 (PC))  returns 0x20000000 (0000ms, 0228ms total)
T1D6C 000:345 JLINK_ClrBPEx(BPHandle = 0x00000002)  returns 0x00 (0000ms, 0228ms total)
T1D6C 000:345 JLINK_ReadReg(R0)  returns 0x00000000 (0000ms, 0228ms total)
T1D6C 000:396 JLINK_WriteReg(R0, 0x00000001)  returns 0x00 (0000ms, 0228ms total)
T1D6C 000:396 JLINK_WriteReg(R1, 0x00B71B00)  returns 0x00 (0000ms, 0228ms total)
T1D6C 000:396 JLINK_WriteReg(R2, 0x00000001)  returns 0x00 (0000ms, 0228ms total)
T1D6C 000:396 JLINK_WriteReg(R3, 0x00000000)  returns 0x00 (0000ms, 0228ms total)
T1D6C 000:396 JLINK_WriteReg(R4, 0x00000000)  returns 0x00 (0000ms, 0228ms total)
T1D6C 000:396 JLINK_WriteReg(R5, 0x00000000)  returns 0x00 (0000ms, 0228ms total)
T1D6C 000:396 JLINK_WriteReg(R6, 0x00000000)  returns 0x00 (0000ms, 0228ms total)
T1D6C 000:396 JLINK_WriteReg(R7, 0x00000000)  returns 0x00 (0000ms, 0228ms total)
T1D6C 000:396 JLINK_WriteReg(R8, 0x00000000)  returns 0x00 (0000ms, 0228ms total)
T1D6C 000:396 JLINK_WriteReg(R9, 0x20000160)  returns 0x00 (0000ms, 0228ms total)
T1D6C 000:396 JLINK_WriteReg(R10, 0x00000000)  returns 0x00 (0000ms, 0228ms total)
T1D6C 000:396 JLINK_WriteReg(R11, 0x00000000)  returns 0x00 (0000ms, 0228ms total)
T1D6C 000:396 JLINK_WriteReg(R12, 0x00000000)  returns 0x00 (0000ms, 0228ms total)
T1D6C 000:396 JLINK_WriteReg(R13 (SP), 0x20000800)  returns 0x00 (0000ms, 0228ms total)
T1D6C 000:396 JLINK_WriteReg(R14, 0x20000001)  returns 0x00 (0001ms, 0229ms total)
T1D6C 000:397 JLINK_WriteReg(R15 (PC), 0x2000006A)  returns 0x00 (0000ms, 0229ms total)
T1D6C 000:397 JLINK_WriteReg(XPSR, 0x01000000)  returns 0x00 (0000ms, 0229ms total)
T1D6C 000:397 JLINK_WriteReg(MSP, 0x20000800)  returns 0x00 (0000ms, 0229ms total)
T1D6C 000:397 JLINK_WriteReg(PSP, 0x20000800)  returns 0x00 (0000ms, 0229ms total)
T1D6C 000:397 JLINK_WriteReg(CFBP, 0x00000000)  returns 0x00 (0000ms, 0229ms total)
T1D6C 000:397 JLINK_SetBPEx(Addr = 0x20000000, Type = 0xFFFFFFF2)  returns 0x00000003 (0000ms, 0229ms total)
T1D6C 000:397 JLINK_Go() -- CPU_ReadMem(4 bytes @ 0xE0001000) (0001ms, 0230ms total)
T1D6C 000:398 JLINK_IsHalted() -- CPU_ReadMem(2 bytes @ 0x20000000)  returns TRUE (0002ms, 0232ms total)
T1D6C 000:400 JLINK_ReadReg(R15 (PC))  returns 0x20000000 (0000ms, 0230ms total)
T1D6C 000:400 JLINK_ClrBPEx(BPHandle = 0x00000003)  returns 0x00 (0000ms, 0230ms total)
T1D6C 000:400 JLINK_ReadReg(R0)  returns 0x00000000 (0000ms, 0230ms total)
T1D6C 000:405 JLINK_WriteMem(0x20000000, 0x0164 Bytes, ...) - Data: 00 BE 0A E0 0D 78 2D 06 68 40 08 24 40 00 00 D3 ... -- CPU_WriteMem(356 bytes @ 0x20000000)  returns 0x164 (0002ms, 0232ms total)
T1D6C 000:407 JLINK_WriteReg(R0, 0x08000000)  returns 0x00 (0000ms, 0232ms total)
T1D6C 000:407 JLINK_WriteReg(R1, 0x00B71B00)  returns 0x00 (0000ms, 0232ms total)
T1D6C 000:407 JLINK_WriteReg(R2, 0x00000002)  returns 0x00 (0000ms, 0232ms total)
T1D6C 000:407 JLINK_WriteReg(R3, 0x00000000)  returns 0x00 (0000ms, 0232ms total)
T1D6C 000:407 JLINK_WriteReg(R4, 0x00000000)  returns 0x00 (0000ms, 0232ms total)
T1D6C 000:407 JLINK_WriteReg(R5, 0x00000000)  returns 0x00 (0000ms, 0232ms total)
T1D6C 000:407 JLINK_WriteReg(R6, 0x00000000)  returns 0x00 (0000ms, 0232ms total)
T1D6C 000:407 JLINK_WriteReg(R7, 0x00000000)  returns 0x00 (0000ms, 0232ms total)
T1D6C 000:407 JLINK_WriteReg(R8, 0x00000000)  returns 0x00 (0000ms, 0232ms total)
T1D6C 000:407 JLINK_WriteReg(R9, 0x20000160)  returns 0x00 (0000ms, 0232ms total)
T1D6C 000:407 JLINK_WriteReg(R10, 0x00000000)  returns 0x00 (0000ms, 0232ms total)
T1D6C 000:407 JLINK_WriteReg(R11, 0x00000000)  returns 0x00 (0000ms, 0232ms total)
T1D6C 000:407 JLINK_WriteReg(R12, 0x00000000)  returns 0x00 (0000ms, 0232ms total)
T1D6C 000:407 JLINK_WriteReg(R13 (SP), 0x20000800)  returns 0x00 (0000ms, 0232ms total)
T1D6C 000:407 JLINK_WriteReg(R14, 0x20000001)  returns 0x00 (0000ms, 0232ms total)
T1D6C 000:407 JLINK_WriteReg(R15 (PC), 0x20000038)  returns 0x00 (0000ms, 0232ms total)
T1D6C 000:407 JLINK_WriteReg(XPSR, 0x01000000)  returns 0x00 (0000ms, 0232ms total)
T1D6C 000:407 JLINK_WriteReg(MSP, 0x20000800)  returns 0x00 (0000ms, 0232ms total)
T1D6C 000:407 JLINK_WriteReg(PSP, 0x20000800)  returns 0x00 (0000ms, 0232ms total)
T1D6C 000:407 JLINK_WriteReg(CFBP, 0x00000000)  returns 0x00 (0000ms, 0232ms total)
T1D6C 000:407 JLINK_SetBPEx(Addr = 0x20000000, Type = 0xFFFFFFF2) -- CPU_ReadMem(2 bytes @ 0x20000000)  returns 0x00000004 (0001ms, 0233ms total)
T1D6C 000:408 JLINK_Go() -- CPU_WriteMem(2 bytes @ 0x20000000) -- CPU_ReadMem(4 bytes @ 0xE0001000) (0001ms, 0234ms total)
T1D6C 000:409 JLINK_IsHalted() -- CPU_ReadMem(2 bytes @ 0x20000000)  returns TRUE (0003ms, 0237ms total)
T1D6C 000:412 JLINK_ReadReg(R15 (PC))  returns 0x20000000 (0000ms, 0234ms total)
T1D6C 000:412 JLINK_ClrBPEx(BPHandle = 0x00000004)  returns 0x00 (0000ms, 0234ms total)
T1D6C 000:412 JLINK_ReadReg(R0)  returns 0x00000000 (0000ms, 0234ms total)
T1D6C 000:412 JLINK_WriteMem(0x20000164, 0x0400 Bytes, ...) - Data: 60 17 00 20 45 01 00 08 4B 07 00 08 F9 05 00 08 ... -- CPU_WriteMem(1024 bytes @ 0x20000164)  returns 0x400 (0006ms, 0240ms total)
T1D6C 000:418 JLINK_WriteReg(R0, 0x08000000)  returns 0x00 (0000ms, 0240ms total)
T1D6C 000:418 JLINK_WriteReg(R1, 0x00000400)  returns 0x00 (0000ms, 0240ms total)
T1D6C 000:418 JLINK_WriteReg(R2, 0x20000164)  returns 0x00 (0000ms, 0240ms total)
T1D6C 000:418 JLINK_WriteReg(R3, 0x00000000)  returns 0x00 (0000ms, 0240ms total)
T1D6C 000:418 JLINK_WriteReg(R4, 0x00000000)  returns 0x00 (0000ms, 0240ms total)
T1D6C 000:418 JLINK_WriteReg(R5, 0x00000000)  returns 0x00 (0000ms, 0240ms total)
T1D6C 000:418 JLINK_WriteReg(R6, 0x00000000)  returns 0x00 (0000ms, 0240ms total)
T1D6C 000:418 JLINK_WriteReg(R7, 0x00000000)  returns 0x00 (0000ms, 0240ms total)
T1D6C 000:418 JLINK_WriteReg(R8, 0x00000000)  returns 0x00 (0000ms, 0240ms total)
T1D6C 000:418 JLINK_WriteReg(R9, 0x20000160)  returns 0x00 (0000ms, 0240ms total)
T1D6C 000:418 JLINK_WriteReg(R10, 0x00000000)  returns 0x00 (0000ms, 0240ms total)
T1D6C 000:418 JLINK_WriteReg(R11, 0x00000000)  returns 0x00 (0000ms, 0240ms total)
T1D6C 000:418 JLINK_WriteReg(R12, 0x00000000)  returns 0x00 (0000ms, 0240ms total)
T1D6C 000:418 JLINK_WriteReg(R13 (SP), 0x20000800)  returns 0x00 (0000ms, 0240ms total)
T1D6C 000:418 JLINK_WriteReg(R14, 0x20000001)  returns 0x00 (0000ms, 0240ms total)
T1D6C 000:418 JLINK_WriteReg(R15 (PC), 0x200000F4)  returns 0x00 (0000ms, 0240ms total)
T1D6C 000:418 JLINK_WriteReg(XPSR, 0x01000000)  returns 0x00 (0000ms, 0240ms total)
T1D6C 000:418 JLINK_WriteReg(MSP, 0x20000800)  returns 0x00 (0000ms, 0240ms total)
T1D6C 000:418 JLINK_WriteReg(PSP, 0x20000800)  returns 0x00 (0000ms, 0240ms total)
T1D6C 000:418 JLINK_WriteReg(CFBP, 0x00000000)  returns 0x00 (0000ms, 0240ms total)
T1D6C 000:418 JLINK_SetBPEx(Addr = 0x20000000, Type = 0xFFFFFFF2)  returns 0x00000005 (0000ms, 0240ms total)
T1D6C 000:418 JLINK_Go() -- CPU_ReadMem(4 bytes @ 0xE0001000) (0002ms, 0242ms total)
T1D6C 000:420 JLINK_IsHalted()  returns FALSE (0000ms, 0242ms total)
T1D6C 000:427 JLINK_IsHalted()  returns FALSE (0000ms, 0242ms total)
T1D6C 000:429 JLINK_IsHalted()  returns FALSE (0000ms, 0242ms total)
T1D6C 000:431 JLINK_IsHalted()  returns FALSE (0000ms, 0242ms total)
T1D6C 000:435 JLINK_IsHalted()  returns FALSE (0000ms, 0242ms total)
T1D6C 000:437 JLINK_IsHalted()  returns FALSE (0000ms, 0242ms total)
T1D6C 000:439 JLINK_IsHalted()  returns FALSE (0000ms, 0242ms total)
T1D6C 000:442 JLINK_IsHalted()  returns FALSE (0000ms, 0242ms total)
T1D6C 000:443 JLINK_IsHalted()  returns FALSE (0000ms, 0242ms total)
T1D6C 000:445 JLINK_IsHalted()  returns FALSE (0000ms, 0242ms total)
T1D6C 000:447 JLINK_IsHalted()  returns FALSE (0001ms, 0243ms total)
T1D6C 000:454 JLINK_IsHalted() -- CPU_ReadMem(2 bytes @ 0x20000000)  returns TRUE (0002ms, 0244ms total)
T1D6C 000:456 JLINK_ReadReg(R15 (PC))  returns 0x20000000 (0000ms, 0242ms total)
T1D6C 000:456 JLINK_ClrBPEx(BPHandle = 0x00000005)  returns 0x00 (0000ms, 0242ms total)
T1D6C 000:456 JLINK_ReadReg(R0)  returns 0x00000000 (0000ms, 0242ms total)
T1D6C 000:456 JLINK_WriteMem(0x20000164, 0x0400 Bytes, ...) - Data: 00 00 00 20 2D E9 FC 5F 00 25 49 4C 00 95 4F F4 ... -- CPU_WriteMem(1024 bytes @ 0x20000164)  returns 0x400 (0007ms, 0249ms total)
T1D6C 000:463 JLINK_WriteReg(R0, 0x08000400)  returns 0x00 (0000ms, 0249ms total)
T1D6C 000:463 JLINK_WriteReg(R1, 0x00000400)  returns 0x00 (0000ms, 0249ms total)
T1D6C 000:463 JLINK_WriteReg(R2, 0x20000164)  returns 0x00 (0000ms, 0249ms total)
T1D6C 000:463 JLINK_WriteReg(R3, 0x00000000)  returns 0x00 (0000ms, 0249ms total)
T1D6C 000:463 JLINK_WriteReg(R4, 0x00000000)  returns 0x00 (0000ms, 0249ms total)
T1D6C 000:463 JLINK_WriteReg(R5, 0x00000000)  returns 0x00 (0000ms, 0249ms total)
T1D6C 000:463 JLINK_WriteReg(R6, 0x00000000)  returns 0x00 (0000ms, 0249ms total)
T1D6C 000:463 JLINK_WriteReg(R7, 0x00000000)  returns 0x00 (0000ms, 0249ms total)
T1D6C 000:463 JLINK_WriteReg(R8, 0x00000000)  returns 0x00 (0000ms, 0249ms total)
T1D6C 000:463 JLINK_WriteReg(R9, 0x20000160)  returns 0x00 (0000ms, 0249ms total)
T1D6C 000:463 JLINK_WriteReg(R10, 0x00000000)  returns 0x00 (0000ms, 0249ms total)
T1D6C 000:463 JLINK_WriteReg(R11, 0x00000000)  returns 0x00 (0000ms, 0249ms total)
T1D6C 000:463 JLINK_WriteReg(R12, 0x00000000)  returns 0x00 (0000ms, 0249ms total)
T1D6C 000:463 JLINK_WriteReg(R13 (SP), 0x20000800)  returns 0x00 (0000ms, 0249ms total)
T1D6C 000:463 JLINK_WriteReg(R14, 0x20000001)  returns 0x00 (0000ms, 0249ms total)
T1D6C 000:463 JLINK_WriteReg(R15 (PC), 0x200000F4)  returns 0x00 (0000ms, 0249ms total)
T1D6C 000:463 JLINK_WriteReg(XPSR, 0x01000000)  returns 0x00 (0000ms, 0249ms total)
T1D6C 000:463 JLINK_WriteReg(MSP, 0x20000800)  returns 0x00 (0000ms, 0249ms total)
T1D6C 000:463 JLINK_WriteReg(PSP, 0x20000800)  returns 0x00 (0000ms, 0249ms total)
T1D6C 000:463 JLINK_WriteReg(CFBP, 0x00000000)  returns 0x00 (0000ms, 0249ms total)
T1D6C 000:463 JLINK_SetBPEx(Addr = 0x20000000, Type = 0xFFFFFFF2)  returns 0x00000006 (0000ms, 0249ms total)
T1D6C 000:463 JLINK_Go() -- CPU_ReadMem(4 bytes @ 0xE0001000) (0001ms, 0250ms total)
T1D6C 000:464 JLINK_IsHalted()  returns FALSE (0001ms, 0251ms total)
T1D6C 000:468 JLINK_IsHalted()  returns FALSE (0000ms, 0250ms total)
T1D6C 000:470 JLINK_IsHalted()  returns FALSE (0000ms, 0250ms total)
T1D6C 000:473 JLINK_IsHalted()  returns FALSE (0000ms, 0250ms total)
T1D6C 000:475 JLINK_IsHalted()  returns FALSE (0000ms, 0250ms total)
T1D6C 000:477 JLINK_IsHalted()  returns FALSE (0000ms, 0250ms total)
T1D6C 000:479 JLINK_IsHalted()  returns FALSE (0000ms, 0250ms total)
T1D6C 000:482 JLINK_IsHalted()  returns FALSE (0000ms, 0250ms total)
T1D6C 000:484 JLINK_IsHalted()  returns FALSE (0000ms, 0250ms total)
T1D6C 000:486 JLINK_IsHalted()  returns FALSE (0000ms, 0250ms total)
T1D6C 000:488 JLINK_IsHalted()  returns FALSE (0000ms, 0250ms total)
T1D6C 000:490 JLINK_IsHalted()  returns FALSE (0001ms, 0251ms total)
T1D6C 000:492 JLINK_IsHalted()  returns FALSE (0000ms, 0250ms total)
T1D6C 000:494 JLINK_IsHalted()  returns FALSE (0000ms, 0250ms total)
T1D6C 000:501 JLINK_IsHalted() -- CPU_ReadMem(2 bytes @ 0x20000000)  returns TRUE (0001ms, 0251ms total)
T1D6C 000:502 JLINK_ReadReg(R15 (PC))  returns 0x20000000 (0000ms, 0250ms total)
T1D6C 000:502 JLINK_ClrBPEx(BPHandle = 0x00000006)  returns 0x00 (0000ms, 0250ms total)
T1D6C 000:502 JLINK_ReadReg(R0)  returns 0x00000000 (0000ms, 0250ms total)
T1D6C 000:502 JLINK_WriteMem(0x20000164, 0x0400 Bytes, ...) - Data: 06 90 40 F2 FF 10 DF F8 B0 B1 07 90 60 A1 58 46 ... -- CPU_WriteMem(1024 bytes @ 0x20000164)  returns 0x400 (0006ms, 0256ms total)
T1D6C 000:508 JLINK_WriteReg(R0, 0x08000800)  returns 0x00 (0000ms, 0256ms total)
T1D6C 000:508 JLINK_WriteReg(R1, 0x00000400)  returns 0x00 (0000ms, 0256ms total)
T1D6C 000:508 JLINK_WriteReg(R2, 0x20000164)  returns 0x00 (0000ms, 0256ms total)
T1D6C 000:508 JLINK_WriteReg(R3, 0x00000000)  returns 0x00 (0000ms, 0256ms total)
T1D6C 000:508 JLINK_WriteReg(R4, 0x00000000)  returns 0x00 (0000ms, 0256ms total)
T1D6C 000:508 JLINK_WriteReg(R5, 0x00000000)  returns 0x00 (0000ms, 0256ms total)
T1D6C 000:508 JLINK_WriteReg(R6, 0x00000000)  returns 0x00 (0000ms, 0256ms total)
T1D6C 000:508 JLINK_WriteReg(R7, 0x00000000)  returns 0x00 (0000ms, 0256ms total)
T1D6C 000:508 JLINK_WriteReg(R8, 0x00000000)  returns 0x00 (0000ms, 0256ms total)
T1D6C 000:508 JLINK_WriteReg(R9, 0x20000160)  returns 0x00 (0000ms, 0256ms total)
T1D6C 000:508 JLINK_WriteReg(R10, 0x00000000)  returns 0x00 (0000ms, 0256ms total)
T1D6C 000:508 JLINK_WriteReg(R11, 0x00000000)  returns 0x00 (0000ms, 0256ms total)
T1D6C 000:508 JLINK_WriteReg(R12, 0x00000000)  returns 0x00 (0000ms, 0256ms total)
T1D6C 000:508 JLINK_WriteReg(R13 (SP), 0x20000800)  returns 0x00 (0000ms, 0256ms total)
T1D6C 000:508 JLINK_WriteReg(R14, 0x20000001)  returns 0x00 (0000ms, 0256ms total)
T1D6C 000:508 JLINK_WriteReg(R15 (PC), 0x200000F4)  returns 0x00 (0000ms, 0256ms total)
T1D6C 000:508 JLINK_WriteReg(XPSR, 0x01000000)  returns 0x00 (0000ms, 0256ms total)
T1D6C 000:508 JLINK_WriteReg(MSP, 0x20000800)  returns 0x00 (0000ms, 0256ms total)
T1D6C 000:508 JLINK_WriteReg(PSP, 0x20000800)  returns 0x00 (0000ms, 0256ms total)
T1D6C 000:508 JLINK_WriteReg(CFBP, 0x00000000)  returns 0x00 (0000ms, 0256ms total)
T1D6C 000:508 JLINK_SetBPEx(Addr = 0x20000000, Type = 0xFFFFFFF2)  returns 0x00000007 (0000ms, 0256ms total)
T1D6C 000:508 JLINK_Go() -- CPU_ReadMem(4 bytes @ 0xE0001000) (0002ms, 0258ms total)
T1D6C 000:510 JLINK_IsHalted()  returns FALSE (0000ms, 0258ms total)
T1D6C 000:513 JLINK_IsHalted()  returns FALSE (0000ms, 0258ms total)
T1D6C 000:515 JLINK_IsHalted()  returns FALSE (0001ms, 0259ms total)
T1D6C 000:517 JLINK_IsHalted()  returns FALSE (0000ms, 0258ms total)
T1D6C 000:520 JLINK_IsHalted()  returns FALSE (0000ms, 0258ms total)
T1D6C 000:522 JLINK_IsHalted()  returns FALSE (0000ms, 0258ms total)
T1D6C 000:524 JLINK_IsHalted()  returns FALSE (0000ms, 0258ms total)
T1D6C 000:529 JLINK_IsHalted()  returns FALSE (0000ms, 0258ms total)
T1D6C 000:531 JLINK_IsHalted()  returns FALSE (0000ms, 0258ms total)
T1D6C 000:533 JLINK_IsHalted()  returns FALSE (0000ms, 0258ms total)
T1D6C 000:536 JLINK_IsHalted()  returns FALSE (0001ms, 0259ms total)
T1D6C 000:538 JLINK_IsHalted()  returns FALSE (0000ms, 0258ms total)
T1D6C 000:540 JLINK_IsHalted()  returns FALSE (0000ms, 0258ms total)
T1D6C 000:542 JLINK_IsHalted() -- CPU_ReadMem(2 bytes @ 0x20000000)  returns TRUE (0002ms, 0260ms total)
T1D6C 000:544 JLINK_ReadReg(R15 (PC))  returns 0x20000000 (0000ms, 0258ms total)
T1D6C 000:544 JLINK_ClrBPEx(BPHandle = 0x00000007)  returns 0x00 (0000ms, 0258ms total)
T1D6C 000:544 JLINK_ReadReg(R0)  returns 0x00000000 (0000ms, 0258ms total)
T1D6C 000:544 JLINK_WriteMem(0x20000164, 0x0400 Bytes, ...) - Data: 41 68 91 62 D1 6A 21 F0 F7 03 D0 E9 02 14 21 43 ... -- CPU_WriteMem(1024 bytes @ 0x20000164)  returns 0x400 (0006ms, 0264ms total)
T1D6C 000:550 JLINK_WriteReg(R0, 0x08000C00)  returns 0x00 (0000ms, 0264ms total)
T1D6C 000:550 JLINK_WriteReg(R1, 0x00000400)  returns 0x00 (0000ms, 0264ms total)
T1D6C 000:550 JLINK_WriteReg(R2, 0x20000164)  returns 0x00 (0000ms, 0264ms total)
T1D6C 000:550 JLINK_WriteReg(R3, 0x00000000)  returns 0x00 (0000ms, 0264ms total)
T1D6C 000:550 JLINK_WriteReg(R4, 0x00000000)  returns 0x00 (0000ms, 0264ms total)
T1D6C 000:550 JLINK_WriteReg(R5, 0x00000000)  returns 0x00 (0000ms, 0264ms total)
T1D6C 000:550 JLINK_WriteReg(R6, 0x00000000)  returns 0x00 (0000ms, 0264ms total)
T1D6C 000:550 JLINK_WriteReg(R7, 0x00000000)  returns 0x00 (0000ms, 0264ms total)
T1D6C 000:550 JLINK_WriteReg(R8, 0x00000000)  returns 0x00 (0000ms, 0264ms total)
T1D6C 000:550 JLINK_WriteReg(R9, 0x20000160)  returns 0x00 (0000ms, 0264ms total)
T1D6C 000:550 JLINK_WriteReg(R10, 0x00000000)  returns 0x00 (0000ms, 0264ms total)
T1D6C 000:550 JLINK_WriteReg(R11, 0x00000000)  returns 0x00 (0000ms, 0264ms total)
T1D6C 000:550 JLINK_WriteReg(R12, 0x00000000)  returns 0x00 (0000ms, 0264ms total)
T1D6C 000:550 JLINK_WriteReg(R13 (SP), 0x20000800)  returns 0x00 (0000ms, 0264ms total)
T1D6C 000:550 JLINK_WriteReg(R14, 0x20000001)  returns 0x00 (0000ms, 0264ms total)
T1D6C 000:550 JLINK_WriteReg(R15 (PC), 0x200000F4)  returns 0x00 (0000ms, 0264ms total)
T1D6C 000:550 JLINK_WriteReg(XPSR, 0x01000000)  returns 0x00 (0000ms, 0264ms total)
T1D6C 000:550 JLINK_WriteReg(MSP, 0x20000800)  returns 0x00 (0000ms, 0264ms total)
T1D6C 000:550 JLINK_WriteReg(PSP, 0x20000800)  returns 0x00 (0000ms, 0264ms total)
T1D6C 000:550 JLINK_WriteReg(CFBP, 0x00000000)  returns 0x00 (0000ms, 0264ms total)
T1D6C 000:550 JLINK_SetBPEx(Addr = 0x20000000, Type = 0xFFFFFFF2)  returns 0x00000008 (0000ms, 0264ms total)
T1D6C 000:550 JLINK_Go() -- CPU_ReadMem(4 bytes @ 0xE0001000) (0001ms, 0265ms total)
T1D6C 000:552 JLINK_IsHalted()  returns FALSE (0000ms, 0266ms total)
T1D6C 000:557 JLINK_IsHalted()  returns FALSE (0000ms, 0266ms total)
T1D6C 000:560 JLINK_IsHalted()  returns FALSE (0000ms, 0266ms total)
T1D6C 000:562 JLINK_IsHalted()  returns FALSE (0000ms, 0266ms total)
T1D6C 000:564 JLINK_IsHalted()  returns FALSE (0000ms, 0266ms total)
T1D6C 000:567 JLINK_IsHalted()  returns FALSE (0000ms, 0266ms total)
T1D6C 000:569 JLINK_IsHalted()  returns FALSE (0000ms, 0266ms total)
T1D6C 000:571 JLINK_IsHalted()  returns FALSE (0000ms, 0266ms total)
T1D6C 000:573 JLINK_IsHalted()  returns FALSE (0000ms, 0266ms total)
T1D6C 000:577 JLINK_IsHalted()  returns FALSE (0000ms, 0266ms total)
T1D6C 000:579 JLINK_IsHalted()  returns FALSE (0000ms, 0266ms total)
T1D6C 000:582 JLINK_IsHalted()  returns FALSE (0000ms, 0266ms total)
T1D6C 000:584 JLINK_IsHalted() -- CPU_ReadMem(2 bytes @ 0x20000000)  returns TRUE (0002ms, 0268ms total)
T1D6C 000:586 JLINK_ReadReg(R15 (PC))  returns 0x20000000 (0000ms, 0266ms total)
T1D6C 000:586 JLINK_ClrBPEx(BPHandle = 0x00000008)  returns 0x00 (0000ms, 0266ms total)
T1D6C 000:586 JLINK_ReadReg(R0)  returns 0x00000000 (0000ms, 0266ms total)
T1D6C 000:588 JLINK_WriteMem(0x20000164, 0x0400 Bytes, ...) - Data: 10 00 00 20 F8 10 00 20 10 B5 00 F0 15 F9 FF F7 ... -- CPU_WriteMem(1024 bytes @ 0x20000164)  returns 0x400 (0006ms, 0272ms total)
T1D6C 000:594 JLINK_WriteReg(R0, 0x08001000)  returns 0x00 (0000ms, 0272ms total)
T1D6C 000:594 JLINK_WriteReg(R1, 0x00000400)  returns 0x00 (0000ms, 0272ms total)
T1D6C 000:594 JLINK_WriteReg(R2, 0x20000164)  returns 0x00 (0000ms, 0272ms total)
T1D6C 000:594 JLINK_WriteReg(R3, 0x00000000)  returns 0x00 (0000ms, 0272ms total)
T1D6C 000:594 JLINK_WriteReg(R4, 0x00000000)  returns 0x00 (0000ms, 0272ms total)
T1D6C 000:594 JLINK_WriteReg(R5, 0x00000000)  returns 0x00 (0000ms, 0272ms total)
T1D6C 000:594 JLINK_WriteReg(R6, 0x00000000)  returns 0x00 (0000ms, 0272ms total)
T1D6C 000:594 JLINK_WriteReg(R7, 0x00000000)  returns 0x00 (0000ms, 0272ms total)
T1D6C 000:594 JLINK_WriteReg(R8, 0x00000000)  returns 0x00 (0000ms, 0272ms total)
T1D6C 000:594 JLINK_WriteReg(R9, 0x20000160)  returns 0x00 (0000ms, 0272ms total)
T1D6C 000:594 JLINK_WriteReg(R10, 0x00000000)  returns 0x00 (0000ms, 0272ms total)
T1D6C 000:594 JLINK_WriteReg(R11, 0x00000000)  returns 0x00 (0000ms, 0272ms total)
T1D6C 000:594 JLINK_WriteReg(R12, 0x00000000)  returns 0x00 (0000ms, 0272ms total)
T1D6C 000:594 JLINK_WriteReg(R13 (SP), 0x20000800)  returns 0x00 (0000ms, 0272ms total)
T1D6C 000:594 JLINK_WriteReg(R14, 0x20000001)  returns 0x00 (0000ms, 0272ms total)
T1D6C 000:594 JLINK_WriteReg(R15 (PC), 0x200000F4)  returns 0x00 (0000ms, 0272ms total)
T1D6C 000:594 JLINK_WriteReg(XPSR, 0x01000000)  returns 0x00 (0001ms, 0273ms total)
T1D6C 000:595 JLINK_WriteReg(MSP, 0x20000800)  returns 0x00 (0000ms, 0273ms total)
T1D6C 000:595 JLINK_WriteReg(PSP, 0x20000800)  returns 0x00 (0000ms, 0273ms total)
T1D6C 000:595 JLINK_WriteReg(CFBP, 0x00000000)  returns 0x00 (0000ms, 0273ms total)
T1D6C 000:595 JLINK_SetBPEx(Addr = 0x20000000, Type = 0xFFFFFFF2)  returns 0x00000009 (0000ms, 0273ms total)
T1D6C 000:595 JLINK_Go() -- CPU_ReadMem(4 bytes @ 0xE0001000) (0001ms, 0274ms total)
T1D6C 000:596 JLINK_IsHalted()  returns FALSE (0000ms, 0274ms total)
T1D6C 000:599 JLINK_IsHalted()  returns FALSE (0000ms, 0274ms total)
T1D6C 000:601 JLINK_IsHalted()  returns FALSE (0001ms, 0275ms total)
T1D6C 000:604 JLINK_IsHalted()  returns FALSE (0000ms, 0274ms total)
T1D6C 000:607 JLINK_IsHalted()  returns FALSE (0000ms, 0274ms total)
T1D6C 000:609 JLINK_IsHalted()  returns FALSE (0000ms, 0274ms total)
T1D6C 000:611 JLINK_IsHalted()  returns FALSE (0000ms, 0274ms total)
T1D6C 000:615 JLINK_IsHalted()  returns FALSE (0000ms, 0274ms total)
T1D6C 000:617 JLINK_IsHalted()  returns FALSE (0000ms, 0274ms total)
T1D6C 000:619 JLINK_IsHalted()  returns FALSE (0000ms, 0274ms total)
T1D6C 000:622 JLINK_IsHalted()  returns FALSE (0000ms, 0274ms total)
T1D6C 000:624 JLINK_IsHalted()  returns FALSE (0000ms, 0274ms total)
T1D6C 000:626 JLINK_IsHalted()  returns FALSE (0000ms, 0274ms total)
T1D6C 000:628 JLINK_IsHalted() -- CPU_ReadMem(2 bytes @ 0x20000000)  returns TRUE (0001ms, 0275ms total)
T1D6C 000:629 JLINK_ReadReg(R15 (PC))  returns 0x20000000 (0000ms, 0274ms total)
T1D6C 000:629 JLINK_ClrBPEx(BPHandle = 0x00000009)  returns 0x00 (0000ms, 0274ms total)
T1D6C 000:629 JLINK_ReadReg(R0)  returns 0x00000000 (0000ms, 0274ms total)
T1D6C 000:630 JLINK_WriteMem(0x20000164, 0x0400 Bytes, ...) - Data: 00 20 FF F7 43 FC C1 0F 09 F1 01 09 03 D1 4F F6 ... -- CPU_WriteMem(1024 bytes @ 0x20000164)  returns 0x400 (0005ms, 0279ms total)
T1D6C 000:635 JLINK_WriteReg(R0, 0x08001400)  returns 0x00 (0000ms, 0279ms total)
T1D6C 000:635 JLINK_WriteReg(R1, 0x00000400)  returns 0x00 (0000ms, 0279ms total)
T1D6C 000:635 JLINK_WriteReg(R2, 0x20000164)  returns 0x00 (0000ms, 0279ms total)
T1D6C 000:635 JLINK_WriteReg(R3, 0x00000000)  returns 0x00 (0000ms, 0279ms total)
T1D6C 000:635 JLINK_WriteReg(R4, 0x00000000)  returns 0x00 (0000ms, 0279ms total)
T1D6C 000:635 JLINK_WriteReg(R5, 0x00000000)  returns 0x00 (0000ms, 0279ms total)
T1D6C 000:635 JLINK_WriteReg(R6, 0x00000000)  returns 0x00 (0000ms, 0279ms total)
T1D6C 000:635 JLINK_WriteReg(R7, 0x00000000)  returns 0x00 (0000ms, 0279ms total)
T1D6C 000:635 JLINK_WriteReg(R8, 0x00000000)  returns 0x00 (0000ms, 0279ms total)
T1D6C 000:635 JLINK_WriteReg(R9, 0x20000160)  returns 0x00 (0000ms, 0279ms total)
T1D6C 000:635 JLINK_WriteReg(R10, 0x00000000)  returns 0x00 (0000ms, 0279ms total)
T1D6C 000:635 JLINK_WriteReg(R11, 0x00000000)  returns 0x00 (0000ms, 0279ms total)
T1D6C 000:635 JLINK_WriteReg(R12, 0x00000000)  returns 0x00 (0001ms, 0280ms total)
T1D6C 000:636 JLINK_WriteReg(R13 (SP), 0x20000800)  returns 0x00 (0000ms, 0280ms total)
T1D6C 000:636 JLINK_WriteReg(R14, 0x20000001)  returns 0x00 (0000ms, 0280ms total)
T1D6C 000:636 JLINK_WriteReg(R15 (PC), 0x200000F4)  returns 0x00 (0000ms, 0280ms total)
T1D6C 000:636 JLINK_WriteReg(XPSR, 0x01000000)  returns 0x00 (0000ms, 0280ms total)
T1D6C 000:636 JLINK_WriteReg(MSP, 0x20000800)  returns 0x00 (0000ms, 0280ms total)
T1D6C 000:636 JLINK_WriteReg(PSP, 0x20000800)  returns 0x00 (0000ms, 0280ms total)
T1D6C 000:636 JLINK_WriteReg(CFBP, 0x00000000)  returns 0x00 (0000ms, 0280ms total)
T1D6C 000:636 JLINK_SetBPEx(Addr = 0x20000000, Type = 0xFFFFFFF2)  returns 0x0000000A (0000ms, 0280ms total)
T1D6C 000:636 JLINK_Go() -- CPU_ReadMem(4 bytes @ 0xE0001000) (0001ms, 0281ms total)
T1D6C 000:637 JLINK_IsHalted()  returns FALSE (0000ms, 0281ms total)
T1D6C 000:642 JLINK_IsHalted()  returns FALSE (0000ms, 0281ms total)
T1D6C 000:645 JLINK_IsHalted()  returns FALSE (0000ms, 0281ms total)
T1D6C 000:647 JLINK_IsHalted()  returns FALSE (0000ms, 0281ms total)
T1D6C 000:649 JLINK_IsHalted()  returns FALSE (0000ms, 0281ms total)
T1D6C 000:651 JLINK_IsHalted()  returns FALSE (0000ms, 0281ms total)
T1D6C 000:654 JLINK_IsHalted()  returns FALSE (0000ms, 0281ms total)
T1D6C 000:656 JLINK_IsHalted()  returns FALSE (0000ms, 0281ms total)
T1D6C 000:659 JLINK_IsHalted()  returns FALSE (0000ms, 0281ms total)
T1D6C 000:661 JLINK_IsHalted()  returns FALSE (0000ms, 0281ms total)
T1D6C 000:663 JLINK_IsHalted()  returns FALSE (0000ms, 0281ms total)
T1D6C 000:665 JLINK_IsHalted()  returns FALSE (0000ms, 0281ms total)
T1D6C 000:668 JLINK_IsHalted() -- CPU_ReadMem(2 bytes @ 0x20000000)  returns TRUE (0002ms, 0283ms total)
T1D6C 000:670 JLINK_ReadReg(R15 (PC))  returns 0x20000000 (0000ms, 0281ms total)
T1D6C 000:670 JLINK_ClrBPEx(BPHandle = 0x0000000A)  returns 0x00 (0000ms, 0281ms total)
T1D6C 000:670 JLINK_ReadReg(R0)  returns 0x00000000 (0000ms, 0281ms total)
T1D6C 000:670 JLINK_WriteMem(0x20000164, 0x0400 Bytes, ...) - Data: C8 60 4F F4 80 60 08 61 08 46 FF F7 71 FA BD E8 ... -- CPU_WriteMem(1024 bytes @ 0x20000164)  returns 0x400 (0006ms, 0287ms total)
T1D6C 000:676 JLINK_WriteReg(R0, 0x08001800)  returns 0x00 (0000ms, 0287ms total)
T1D6C 000:676 JLINK_WriteReg(R1, 0x00000400)  returns 0x00 (0000ms, 0287ms total)
T1D6C 000:676 JLINK_WriteReg(R2, 0x20000164)  returns 0x00 (0000ms, 0287ms total)
T1D6C 000:676 JLINK_WriteReg(R3, 0x00000000)  returns 0x00 (0000ms, 0287ms total)
T1D6C 000:676 JLINK_WriteReg(R4, 0x00000000)  returns 0x00 (0000ms, 0287ms total)
T1D6C 000:676 JLINK_WriteReg(R5, 0x00000000)  returns 0x00 (0000ms, 0287ms total)
T1D6C 000:676 JLINK_WriteReg(R6, 0x00000000)  returns 0x00 (0000ms, 0287ms total)
T1D6C 000:676 JLINK_WriteReg(R7, 0x00000000)  returns 0x00 (0000ms, 0287ms total)
T1D6C 000:676 JLINK_WriteReg(R8, 0x00000000)  returns 0x00 (0000ms, 0287ms total)
T1D6C 000:676 JLINK_WriteReg(R9, 0x20000160)  returns 0x00 (0000ms, 0287ms total)
T1D6C 000:676 JLINK_WriteReg(R10, 0x00000000)  returns 0x00 (0000ms, 0287ms total)
T1D6C 000:676 JLINK_WriteReg(R11, 0x00000000)  returns 0x00 (0000ms, 0287ms total)
T1D6C 000:676 JLINK_WriteReg(R12, 0x00000000)  returns 0x00 (0000ms, 0287ms total)
T1D6C 000:676 JLINK_WriteReg(R13 (SP), 0x20000800)  returns 0x00 (0000ms, 0287ms total)
T1D6C 000:676 JLINK_WriteReg(R14, 0x20000001)  returns 0x00 (0000ms, 0287ms total)
T1D6C 000:676 JLINK_WriteReg(R15 (PC), 0x200000F4)  returns 0x00 (0000ms, 0287ms total)
T1D6C 000:676 JLINK_WriteReg(XPSR, 0x01000000)  returns 0x00 (0000ms, 0287ms total)
T1D6C 000:676 JLINK_WriteReg(MSP, 0x20000800)  returns 0x00 (0000ms, 0287ms total)
T1D6C 000:676 JLINK_WriteReg(PSP, 0x20000800)  returns 0x00 (0000ms, 0287ms total)
T1D6C 000:676 JLINK_WriteReg(CFBP, 0x00000000)  returns 0x00 (0000ms, 0287ms total)
T1D6C 000:676 JLINK_SetBPEx(Addr = 0x20000000, Type = 0xFFFFFFF2)  returns 0x0000000B (0000ms, 0287ms total)
T1D6C 000:676 JLINK_Go() -- CPU_ReadMem(4 bytes @ 0xE0001000) (0002ms, 0289ms total)
T1D6C 000:678 JLINK_IsHalted()  returns FALSE (0000ms, 0289ms total)
T1D6C 000:685 JLINK_IsHalted()  returns FALSE (0000ms, 0289ms total)
T1D6C 000:687 JLINK_IsHalted()  returns FALSE (0000ms, 0289ms total)
T1D6C 000:689 JLINK_IsHalted()  returns FALSE (0000ms, 0289ms total)
T1D6C 000:692 JLINK_IsHalted()  returns FALSE (0000ms, 0289ms total)
T1D6C 000:694 JLINK_IsHalted()  returns FALSE (0000ms, 0289ms total)
T1D6C 000:696 JLINK_IsHalted()  returns FALSE (0000ms, 0289ms total)
T1D6C 000:698 JLINK_IsHalted()  returns FALSE (0000ms, 0289ms total)
T1D6C 000:701 JLINK_IsHalted()  returns FALSE (0000ms, 0289ms total)
T1D6C 000:703 JLINK_IsHalted()  returns FALSE (0000ms, 0289ms total)
T1D6C 000:705 JLINK_IsHalted()  returns FALSE (0000ms, 0289ms total)
T1D6C 000:708 JLINK_IsHalted()  returns FALSE (0000ms, 0289ms total)
T1D6C 000:710 JLINK_IsHalted() -- CPU_ReadMem(2 bytes @ 0x20000000)  returns TRUE (0001ms, 0290ms total)
T1D6C 000:711 JLINK_ReadReg(R15 (PC))  returns 0x20000000 (0000ms, 0289ms total)
T1D6C 000:711 JLINK_ClrBPEx(BPHandle = 0x0000000B)  returns 0x00 (0000ms, 0289ms total)
T1D6C 000:711 JLINK_ReadReg(R0)  returns 0x00000000 (0000ms, 0289ms total)
T1D6C 000:714 JLINK_WriteMem(0x20000164, 0x0400 Bytes, ...) - Data: 8C 89 22 43 CC 89 22 43 1A 43 02 80 82 8B 22 F4 ... -- CPU_WriteMem(1024 bytes @ 0x20000164)  returns 0x400 (0006ms, 0295ms total)
T1D6C 000:720 JLINK_WriteReg(R0, 0x08001C00)  returns 0x00 (0000ms, 0295ms total)
T1D6C 000:720 JLINK_WriteReg(R1, 0x00000400)  returns 0x00 (0000ms, 0295ms total)
T1D6C 000:720 JLINK_WriteReg(R2, 0x20000164)  returns 0x00 (0000ms, 0295ms total)
T1D6C 000:720 JLINK_WriteReg(R3, 0x00000000)  returns 0x00 (0000ms, 0295ms total)
T1D6C 000:720 JLINK_WriteReg(R4, 0x00000000)  returns 0x00 (0000ms, 0295ms total)
T1D6C 000:720 JLINK_WriteReg(R5, 0x00000000)  returns 0x00 (0000ms, 0295ms total)
T1D6C 000:720 JLINK_WriteReg(R6, 0x00000000)  returns 0x00 (0000ms, 0295ms total)
T1D6C 000:720 JLINK_WriteReg(R7, 0x00000000)  returns 0x00 (0000ms, 0295ms total)
T1D6C 000:720 JLINK_WriteReg(R8, 0x00000000)  returns 0x00 (0000ms, 0295ms total)
T1D6C 000:720 JLINK_WriteReg(R9, 0x20000160)  returns 0x00 (0000ms, 0295ms total)
T1D6C 000:720 JLINK_WriteReg(R10, 0x00000000)  returns 0x00 (0000ms, 0295ms total)
T1D6C 000:720 JLINK_WriteReg(R11, 0x00000000)  returns 0x00 (0000ms, 0295ms total)
T1D6C 000:720 JLINK_WriteReg(R12, 0x00000000)  returns 0x00 (0000ms, 0295ms total)
T1D6C 000:720 JLINK_WriteReg(R13 (SP), 0x20000800)  returns 0x00 (0000ms, 0295ms total)
T1D6C 000:720 JLINK_WriteReg(R14, 0x20000001)  returns 0x00 (0000ms, 0295ms total)
T1D6C 000:720 JLINK_WriteReg(R15 (PC), 0x200000F4)  returns 0x00 (0000ms, 0295ms total)
T1D6C 000:720 JLINK_WriteReg(XPSR, 0x01000000)  returns 0x00 (0000ms, 0295ms total)
T1D6C 000:720 JLINK_WriteReg(MSP, 0x20000800)  returns 0x00 (0000ms, 0295ms total)
T1D6C 000:720 JLINK_WriteReg(PSP, 0x20000800)  returns 0x00 (0000ms, 0295ms total)
T1D6C 000:720 JLINK_WriteReg(CFBP, 0x00000000)  returns 0x00 (0000ms, 0295ms total)
T1D6C 000:720 JLINK_SetBPEx(Addr = 0x20000000, Type = 0xFFFFFFF2)  returns 0x0000000C (0000ms, 0295ms total)
T1D6C 000:720 JLINK_Go() -- CPU_ReadMem(4 bytes @ 0xE0001000) (0002ms, 0297ms total)
T1D6C 000:722 JLINK_IsHalted()  returns FALSE (0000ms, 0297ms total)
T1D6C 000:725 JLINK_IsHalted()  returns FALSE (0000ms, 0297ms total)
T1D6C 000:727 JLINK_IsHalted()  returns FALSE (0000ms, 0297ms total)
T1D6C 000:729 JLINK_IsHalted()  returns FALSE (0000ms, 0297ms total)
T1D6C 000:732 JLINK_IsHalted()  returns FALSE (0000ms, 0297ms total)
T1D6C 000:734 JLINK_IsHalted()  returns FALSE (0000ms, 0297ms total)
T1D6C 000:735 JLINK_IsHalted()  returns FALSE (0000ms, 0297ms total)
T1D6C 000:737 JLINK_IsHalted()  returns FALSE (0000ms, 0297ms total)
T1D6C 000:740 JLINK_IsHalted()  returns FALSE (0000ms, 0297ms total)
T1D6C 000:742 JLINK_IsHalted()  returns FALSE (0000ms, 0297ms total)
T1D6C 000:746 JLINK_IsHalted()  returns FALSE (0000ms, 0297ms total)
T1D6C 000:748 JLINK_IsHalted()  returns FALSE (0000ms, 0297ms total)
T1D6C 000:750 JLINK_IsHalted()  returns FALSE (0000ms, 0297ms total)
T1D6C 000:752 JLINK_IsHalted()  returns FALSE (0000ms, 0297ms total)
T1D6C 000:755 JLINK_IsHalted() -- CPU_ReadMem(2 bytes @ 0x20000000)  returns TRUE (0003ms, 0300ms total)
T1D6C 000:758 JLINK_ReadReg(R15 (PC))  returns 0x20000000 (0000ms, 0297ms total)
T1D6C 000:758 JLINK_ClrBPEx(BPHandle = 0x0000000C)  returns 0x00 (0000ms, 0297ms total)
T1D6C 000:758 JLINK_ReadReg(R0)  returns 0x00000000 (0000ms, 0297ms total)
T1D6C 000:758 JLINK_WriteMem(0x20000164, 0x0400 Bytes, ...) - Data: 69 46 20 46 FE F7 9C FA 4F F4 E1 30 01 90 00 20 ... -- CPU_WriteMem(1024 bytes @ 0x20000164)  returns 0x400 (0006ms, 0303ms total)
T1D6C 000:764 JLINK_WriteReg(R0, 0x08002000)  returns 0x00 (0000ms, 0303ms total)
T1D6C 000:764 JLINK_WriteReg(R1, 0x00000400)  returns 0x00 (0000ms, 0303ms total)
T1D6C 000:764 JLINK_WriteReg(R2, 0x20000164)  returns 0x00 (0000ms, 0303ms total)
T1D6C 000:764 JLINK_WriteReg(R3, 0x00000000)  returns 0x00 (0000ms, 0303ms total)
T1D6C 000:764 JLINK_WriteReg(R4, 0x00000000)  returns 0x00 (0000ms, 0303ms total)
T1D6C 000:764 JLINK_WriteReg(R5, 0x00000000)  returns 0x00 (0000ms, 0303ms total)
T1D6C 000:764 JLINK_WriteReg(R6, 0x00000000)  returns 0x00 (0000ms, 0303ms total)
T1D6C 000:764 JLINK_WriteReg(R7, 0x00000000)  returns 0x00 (0000ms, 0303ms total)
T1D6C 000:764 JLINK_WriteReg(R8, 0x00000000)  returns 0x00 (0000ms, 0303ms total)
T1D6C 000:764 JLINK_WriteReg(R9, 0x20000160)  returns 0x00 (0000ms, 0303ms total)
T1D6C 000:764 JLINK_WriteReg(R10, 0x00000000)  returns 0x00 (0000ms, 0303ms total)
T1D6C 000:764 JLINK_WriteReg(R11, 0x00000000)  returns 0x00 (0000ms, 0303ms total)
T1D6C 000:764 JLINK_WriteReg(R12, 0x00000000)  returns 0x00 (0000ms, 0303ms total)
T1D6C 000:764 JLINK_WriteReg(R13 (SP), 0x20000800)  returns 0x00 (0000ms, 0303ms total)
T1D6C 000:764 JLINK_WriteReg(R14, 0x20000001)  returns 0x00 (0000ms, 0303ms total)
T1D6C 000:764 JLINK_WriteReg(R15 (PC), 0x200000F4)  returns 0x00 (0000ms, 0303ms total)
T1D6C 000:764 JLINK_WriteReg(XPSR, 0x01000000)  returns 0x00 (0000ms, 0303ms total)
T1D6C 000:765 JLINK_WriteReg(MSP, 0x20000800)  returns 0x00 (0000ms, 0303ms total)
T1D6C 000:765 JLINK_WriteReg(PSP, 0x20000800)  returns 0x00 (0000ms, 0303ms total)
T1D6C 000:765 JLINK_WriteReg(CFBP, 0x00000000)  returns 0x00 (0000ms, 0303ms total)
T1D6C 000:765 JLINK_SetBPEx(Addr = 0x20000000, Type = 0xFFFFFFF2)  returns 0x0000000D (0000ms, 0303ms total)
T1D6C 000:765 JLINK_Go() -- CPU_ReadMem(4 bytes @ 0xE0001000) (0001ms, 0304ms total)
T1D6C 000:766 JLINK_IsHalted()  returns FALSE (0000ms, 0304ms total)
T1D6C 000:769 JLINK_IsHalted()  returns FALSE (0000ms, 0304ms total)
T1D6C 000:771 JLINK_IsHalted()  returns FALSE (0000ms, 0304ms total)
T1D6C 000:773 JLINK_IsHalted()  returns FALSE (0000ms, 0304ms total)
T1D6C 000:775 JLINK_IsHalted()  returns FALSE (0000ms, 0304ms total)
T1D6C 000:777 JLINK_IsHalted()  returns FALSE (0000ms, 0304ms total)
T1D6C 000:779 JLINK_IsHalted()  returns FALSE (0000ms, 0304ms total)
T1D6C 000:781 JLINK_IsHalted()  returns FALSE (0000ms, 0304ms total)
T1D6C 000:783 JLINK_IsHalted()  returns FALSE (0000ms, 0304ms total)
T1D6C 000:786 JLINK_IsHalted()  returns FALSE (0000ms, 0304ms total)
T1D6C 000:788 JLINK_IsHalted()  returns FALSE (0000ms, 0304ms total)
T1D6C 000:790 JLINK_IsHalted()  returns FALSE (0000ms, 0304ms total)
T1D6C 000:792 JLINK_IsHalted()  returns FALSE (0000ms, 0304ms total)
T1D6C 000:794 JLINK_IsHalted()  returns FALSE (0000ms, 0304ms total)
T1D6C 000:796 JLINK_IsHalted()  returns FALSE (0000ms, 0304ms total)
T1D6C 000:798 JLINK_IsHalted() -- CPU_ReadMem(2 bytes @ 0x20000000)  returns TRUE (0002ms, 0306ms total)
T1D6C 000:800 JLINK_ReadReg(R15 (PC))  returns 0x20000000 (0000ms, 0306ms total)
T1D6C 000:800 JLINK_ClrBPEx(BPHandle = 0x0000000D)  returns 0x00 (0000ms, 0306ms total)
T1D6C 000:800 JLINK_ReadReg(R0)  returns 0x00000000 (0000ms, 0306ms total)
T1D6C 000:800 JLINK_WriteMem(0x20000164, 0x0400 Bytes, ...) - Data: 70 47 82 6A 80 78 01 FB 00 20 70 47 00 21 02 E0 ... -- CPU_WriteMem(1024 bytes @ 0x20000164)  returns 0x400 (0006ms, 0312ms total)
T1D6C 000:806 JLINK_WriteReg(R0, 0x08002400)  returns 0x00 (0000ms, 0312ms total)
T1D6C 000:806 JLINK_WriteReg(R1, 0x00000400)  returns 0x00 (0000ms, 0312ms total)
T1D6C 000:806 JLINK_WriteReg(R2, 0x20000164)  returns 0x00 (0000ms, 0312ms total)
T1D6C 000:806 JLINK_WriteReg(R3, 0x00000000)  returns 0x00 (0000ms, 0312ms total)
T1D6C 000:806 JLINK_WriteReg(R4, 0x00000000)  returns 0x00 (0000ms, 0312ms total)
T1D6C 000:806 JLINK_WriteReg(R5, 0x00000000)  returns 0x00 (0000ms, 0312ms total)
T1D6C 000:806 JLINK_WriteReg(R6, 0x00000000)  returns 0x00 (0000ms, 0312ms total)
T1D6C 000:806 JLINK_WriteReg(R7, 0x00000000)  returns 0x00 (0000ms, 0312ms total)
T1D6C 000:806 JLINK_WriteReg(R8, 0x00000000)  returns 0x00 (0000ms, 0312ms total)
T1D6C 000:806 JLINK_WriteReg(R9, 0x20000160)  returns 0x00 (0000ms, 0312ms total)
T1D6C 000:806 JLINK_WriteReg(R10, 0x00000000)  returns 0x00 (0000ms, 0312ms total)
T1D6C 000:806 JLINK_WriteReg(R11, 0x00000000)  returns 0x00 (0000ms, 0312ms total)
T1D6C 000:806 JLINK_WriteReg(R12, 0x00000000)  returns 0x00 (0000ms, 0312ms total)
T1D6C 000:806 JLINK_WriteReg(R13 (SP), 0x20000800)  returns 0x00 (0000ms, 0312ms total)
T1D6C 000:806 JLINK_WriteReg(R14, 0x20000001)  returns 0x00 (0000ms, 0312ms total)
T1D6C 000:806 JLINK_WriteReg(R15 (PC), 0x200000F4)  returns 0x00 (0000ms, 0312ms total)
T1D6C 000:806 JLINK_WriteReg(XPSR, 0x01000000)  returns 0x00 (0001ms, 0313ms total)
T1D6C 000:807 JLINK_WriteReg(MSP, 0x20000800)  returns 0x00 (0000ms, 0313ms total)
T1D6C 000:807 JLINK_WriteReg(PSP, 0x20000800)  returns 0x00 (0000ms, 0313ms total)
T1D6C 000:807 JLINK_WriteReg(CFBP, 0x00000000)  returns 0x00 (0000ms, 0313ms total)
T1D6C 000:807 JLINK_SetBPEx(Addr = 0x20000000, Type = 0xFFFFFFF2)  returns 0x0000000E (0000ms, 0313ms total)
T1D6C 000:807 JLINK_Go() -- CPU_ReadMem(4 bytes @ 0xE0001000) (0001ms, 0314ms total)
T1D6C 000:808 JLINK_IsHalted()  returns FALSE (0000ms, 0314ms total)
T1D6C 000:810 JLINK_IsHalted()  returns FALSE (0000ms, 0314ms total)
T1D6C 000:812 JLINK_IsHalted()  returns FALSE (0000ms, 0314ms total)
T1D6C 000:814 JLINK_IsHalted()  returns FALSE (0000ms, 0314ms total)
T1D6C 000:816 JLINK_IsHalted()  returns FALSE (0000ms, 0314ms total)
T1D6C 000:818 JLINK_IsHalted()  returns FALSE (0000ms, 0314ms total)
T1D6C 000:820 JLINK_IsHalted()  returns FALSE (0000ms, 0314ms total)
